time	I(R1)	I(R4)
0.000000000000000e+000	0.000000e+000	0.000000e+000
8.386547440122417e-007	4.416439e-005	-1.375407e-013
1.677309488024483e-006	8.823149e-005	-1.851045e-013
2.515964232036725e-006	1.322013e-004	-1.426913e-013
3.354618976048967e-006	1.760738e-004	-1.030125e-014
4.193273720061209e-006	2.198490e-004	2.120658e-013
5.031928464073450e-006	2.635270e-004	5.244097e-013
5.870583208085690e-006	3.071076e-004	9.267306e-013
6.577687893659722e-006	3.436064e-004	3.317728e-012
6.807274968685049e-006	3.554206e-004	5.102544e-012
7.027079723891551e-006	3.667120e-004	7.852905e-012
7.264072140923347e-006	3.788647e-004	1.268078e-011
7.536868850335922e-006	3.928257e-004	2.183279e-011
7.798187052815229e-006	4.061690e-004	3.668248e-011
8.075546815397798e-006	4.202945e-004	6.345822e-011
8.343199859696802e-006	4.338840e-004	1.075934e-010
8.619919627185721e-006	4.478814e-004	1.853170e-010
8.890523709025354e-006	4.615033e-004	3.149077e-010
9.167176802762540e-006	4.753375e-004	5.399992e-010
9.440660781941935e-006	4.888831e-004	9.174327e-010
9.718895680359254e-006	5.024690e-004	1.565256e-009
9.996585027970147e-006	5.157371e-004	2.649394e-009
1.027947017414052e-005	5.288155e-004	4.481263e-009
1.056543523261276e-005	5.414032e-004	7.508416e-009
1.086000625091473e-005	5.534895e-004	1.250276e-008
1.116457559081510e-005	5.648445e-004	2.056915e-008
1.148651574179999e-005	5.754568e-004	3.350979e-008
1.183159776883274e-005	5.852561e-004	5.393822e-008
1.221075443287562e-005	5.943287e-004	8.604433e-008
1.263493265583316e-005	6.027403e-004	1.360789e-007
1.312008931546879e-005	6.106240e-004	2.139906e-007
1.368374378640854e-005	6.180812e-004	3.348794e-007
1.434939584757914e-005	6.252325e-004	5.225429e-007
1.514452582515179e-005	6.321757e-004	8.133611e-007
1.610523769547338e-005	6.390251e-004	1.264186e-006
1.727587866031294e-005	6.458997e-004	1.962149e-006
1.871495570968753e-005	6.529591e-004	3.042371e-006
2.049772180667283e-005	6.604132e-004	4.711406e-006
2.272644646204659e-005	6.685676e-004	7.285878e-006
2.554202804211728e-005	6.778587e-004	1.124299e-005
2.915297777018641e-005	6.889103e-004	1.729100e-005
3.389450507630624e-005	7.025318e-004	2.642339e-005
4.040855530500421e-005	7.200523e-004	4.001594e-005
4.414375572637198e-005	7.292175e-004	4.793699e-005
4.764800306163795e-005	7.367203e-004	5.502536e-005
5.212446194833574e-005	7.445882e-004	6.310590e-005
5.645830997537405e-005	7.494791e-004	6.912803e-005
6.348840204669418e-005	7.490285e-004	7.323912e-005
7.471204708648057e-005	7.226572e-004	6.631289e-005
8.543263697008570e-005	6.031568e-004	4.514811e-005
9.265438046039730e-005	3.824230e-004	2.314943e-005
9.769173536463667e-005	1.445281e-004	5.397547e-006
1.033398404910729e-004	-1.471140e-004	-1.482135e-005
1.092559595846749e-004	-4.413228e-004	-3.491887e-005
1.203453036080736e-004	-9.339561e-004	-6.791708e-005
1.314853813024636e-004	-1.338206e-003	-9.444288e-005
1.373198808588473e-004	-1.492453e-003	-1.042960e-004
1.415267854956735e-004	-1.567205e-003	-1.088695e-004
1.446599809411502e-004	-1.602379e-003	-1.108573e-004
1.482419553685433e-004	-1.620857e-003	-1.116381e-004
1.523460058856632e-004	-1.616360e-003	-1.107881e-004
1.568187107281791e-004	-1.576274e-003	-1.075052e-004
1.640703412479603e-004	-1.435060e-003	-9.721380e-005
1.756159039381150e-004	-1.070591e-003	-7.201359e-005
1.883206308489169e-004	-5.319502e-004	-3.582595e-005
1.975030527975657e-004	-7.828755e-005	-5.877461e-006
2.059330690543362e-004	3.281650e-004	2.265207e-005
2.144792939387590e-004	5.969495e-004	5.179620e-005
2.284220459985892e-004	7.651097e-004	1.002354e-004
2.351912179457244e-004	7.991526e-004	1.235104e-004
2.399708891143224e-004	8.172183e-004	1.387193e-004
2.434931998636865e-004	8.281397e-004	1.484788e-004
2.468311069137491e-004	8.363703e-004	1.561651e-004
2.504425727693509e-004	8.429218e-004	1.626435e-004
2.537206404821395e-004	8.461259e-004	1.663236e-004
2.590530681718994e-004	8.446030e-004	1.668511e-004
2.676649022830069e-004	8.239471e-004	1.540686e-004
2.798854769489837e-004	7.143721e-004	1.112864e-004
2.920040852471143e-004	4.242920e-004	4.705184e-005
2.991039783526287e-004	1.212438e-004	1.948294e-006
3.054702594073273e-004	-2.055887e-004	-3.992182e-005
3.118049196685859e-004	-5.132922e-004	-7.877052e-005
3.235200752520924e-004	-1.004198e-003	-1.395749e-004
3.351171236590965e-004	-1.384249e-003	-1.857282e-004
3.399171406102075e-004	-1.491958e-003	-1.984659e-004
3.434530488216257e-004	-1.540727e-003	-2.039561e-004
3.467828164368838e-004	-1.566388e-003	-2.065430e-004
3.503568224359795e-004	-1.574029e-003	-2.067999e-004
3.535810158891786e-004	-1.560647e-003	-2.044895e-004
3.588262913220322e-004	-1.495760e-003	-1.954125e-004
3.673012202160408e-004	-1.299761e-003	-1.698028e-004
3.793120388906545e-004	-8.785062e-004	-1.167359e-004
3.911445902786655e-004	-3.467232e-004	-5.113435e-005
4.000356031979603e-004	1.013875e-004	3.416224e-006
4.093351965135127e-004	5.130291e-004	6.099753e-005
4.179228859284878e-004	7.266547e-004	1.119545e-004
4.299476406046802e-004	8.465464e-004	1.784765e-004
4.362438067570627e-004	8.844234e-004	2.091786e-004
4.407374765450662e-004	9.049647e-004	2.273275e-004
4.440670109560154e-004	9.167230e-004	2.380753e-004
4.475231807740006e-004	9.253140e-004	2.462274e-004
4.520778422626351e-004	9.315311e-004	2.526040e-004
4.563824620733365e-004	9.309422e-004	2.530554e-004
4.633658636589246e-004	9.140396e-004	2.403889e-004
4.745192645959930e-004	8.476406e-004	1.929826e-004
4.865630976938671e-004	6.586050e-004	1.122878e-004
4.948575565560516e-004	3.715307e-004	4.192676e-005
5.016185312392221e-004	4.157782e-005	-2.023721e-005
5.084268129126371e-004	-3.022562e-004	-8.144909e-005
5.171571481338791e-004	-7.036385e-004	-1.517730e-004
5.289489290653974e-004	-1.154915e-003	-2.293820e-004
5.366684063358263e-004	-1.376193e-003	-2.666724e-004
5.410482650673280e-004	-1.460553e-003	-2.804448e-004
5.443002398451411e-004	-1.499568e-003	-2.864462e-004
5.478054731964801e-004	-1.519714e-003	-2.890201e-004
5.521832429899742e-004	-1.517132e-003	-2.873443e-004
5.565539397107383e-004	-1.480251e-003	-2.797055e-004
5.636428669322690e-004	-1.346165e-003	-2.547102e-004
5.749548839037704e-004	-9.963776e-004	-1.924454e-004
5.875424371053462e-004	-4.697502e-004	-1.010294e-004
5.967557632037660e-004	-1.736896e-005	-2.367639e-005
6.051868019302214e-004	3.908392e-004	4.987418e-005
6.137659424962221e-004	6.797590e-004	1.216070e-004
6.261200916020626e-004	8.762627e-004	2.162207e-004
6.336324862313714e-004	9.384775e-004	2.660625e-004
6.388463655489654e-004	9.700718e-004	2.940789e-004
6.426555011111577e-004	9.875245e-004	3.100565e-004
6.457996037138996e-004	9.979826e-004	3.198663e-004
6.489890319153532e-004	1.004769e-003	3.264344e-004
6.526241351098005e-004	1.007595e-003	3.295451e-004
6.572710608477164e-004	1.002626e-003	3.258720e-004
6.647999763550209e-004	9.732578e-004	3.015620e-004
6.767676273973938e-004	8.722052e-004	2.268003e-004
6.889655946266778e-004	6.323351e-004	1.161084e-004
6.970621491773850e-004	3.181550e-004	2.747903e-005
7.040711596515253e-004	-3.512756e-005	-5.310254e-005
7.110959315355601e-004	-3.814776e-004	-1.297713e-004
7.215277362773692e-004	-8.318099e-004	-2.277231e-004
7.334458195830145e-004	-1.242999e-003	-3.154679e-004
7.387125931269714e-004	-1.371956e-003	-3.423713e-004
7.425561870110255e-004	-1.432321e-003	-3.544865e-004
7.456760437874429e-004	-1.462189e-003	-3.600498e-004
7.489614869254649e-004	-1.475109e-003	-3.617986e-004
7.526138881792163e-004	-1.467495e-003	-3.589107e-004
7.572543973615620e-004	-1.421996e-003	-3.474737e-004
7.647731142421185e-004	-1.269683e-003	-3.123251e-004
7.763759017278442e-004	-8.938195e-004	-2.291690e-004
7.892134711131117e-004	-3.409309e-004	-1.096736e-004
7.983934717518452e-004	1.153227e-004	-1.240885e-005
8.068412694070683e-004	5.068490e-004	7.940813e-005
8.153682501851869e-004	7.594154e-004	1.663198e-004
8.290987434942140e-004	9.560247e-004	2.906155e-004
8.356562250812881e-004	1.013217e-003	3.396585e-004
8.403088563086779e-004	1.042375e-003	3.663019e-004
8.437459138159874e-004	1.058107e-003	3.809769e-004
8.471354647846546e-004	1.068252e-003	3.906413e-004
8.513491809937145e-004	1.074190e-003	3.965954e-004
8.551966426084620e-004	1.072028e-003	3.951275e-004
8.614473044691031e-004	1.051046e-003	3.770342e-004
8.714858195138525e-004	9.787036e-004	3.157432e-004
8.837031246878516e-004	7.992488e-004	1.998655e-004
8.935966165682526e-004	5.060664e-004	7.979674e-005
9.011541092799588e-004	1.626369e-004	-2.141898e-005
9.090314449945893e-004	-2.351997e-004	-1.257818e-004
9.171145683894177e-004	-6.050671e-004	-2.213662e-004
9.295497702829253e-004	-1.075345e-003	-3.407791e-004
9.372727228408358e-004	-1.292408e-003	-3.949523e-004
9.414920806211788e-004	-1.370565e-003	-4.139298e-004
9.446338651704570e-004	-1.406059e-003	-4.220963e-004
9.482102263164570e-004	-1.424715e-003	-4.257055e-004
9.523341818343965e-004	-1.420410e-003	-4.231709e-004
9.567994774736401e-004	-1.380629e-003	-4.114327e-004
9.640392988216857e-004	-1.240429e-003	-3.734659e-004
9.754117026064225e-004	-8.832728e-004	-2.805231e-004
9.880620140463249e-004	-3.489477e-004	-1.444891e-004
9.972697338826578e-004	1.049174e-004	-3.040975e-005
1.005722450093677e-003	5.017673e-004	7.806712e-005
1.014289585532095e-003	7.729739e-004	1.822110e-004
1.026806030164956e-003	9.794402e-004	3.173675e-004
1.034808513228986e-003	1.061284e-003	3.886628e-004
1.039693582276523e-003	1.097231e-003	4.217686e-004
1.043286164579593e-003	1.116131e-003	4.395278e-004
1.046582298619329e-003	1.127923e-003	4.507659e-004
1.049582748916344e-003	1.133934e-003	4.566410e-004
1.052844907996292e-003	1.134649e-003	4.576507e-004
1.057630037599494e-003	1.124234e-003	4.485589e-004
1.065378353212200e-003	1.079739e-003	4.090471e-004
1.077393214215322e-003	9.483604e-004	3.010699e-004
1.089887445953747e-003	6.775811e-004	1.447770e-004
1.098223009293345e-003	3.506741e-004	2.182643e-005
1.105599366762138e-003	-1.784518e-005	-9.106028e-005
1.113022983916187e-003	-3.772073e-004	-1.973367e-004
1.123907909428755e-003	-8.256480e-004	-3.278163e-004
1.136181427030321e-003	-1.215478e-003	-4.392753e-004
1.140691891303245e-003	-1.312077e-003	-4.663349e-004
1.144032830098712e-003	-1.354119e-003	-4.776482e-004
1.147481856452775e-003	-1.375498e-003	-4.827852e-004
1.152062402896570e-003	-1.374581e-003	-4.809634e-004
1.156357342375321e-003	-1.340073e-003	-4.694496e-004
1.163325275767217e-003	-1.211303e-003	-4.300142e-004
1.174455383345029e-003	-8.728580e-004	-3.301630e-004
1.186925384845864e-003	-3.568738e-004	-1.810092e-004
1.196162635278546e-003	9.415791e-005	-5.216606e-005
1.204622386541075e-003	4.946743e-004	7.130266e-005
1.213229557978621e-003	7.814073e-004	1.915629e-004
1.224876198054702e-003	9.955233e-004	3.363312e-004
1.234314094246635e-003	1.105072e-003	4.330968e-004
1.239336480718457e-003	1.147112e-003	4.720524e-004
1.243019992048165e-003	1.168752e-003	4.924864e-004
1.246252839851064e-003	1.181531e-003	5.047104e-004
1.249415488168413e-003	1.188386e-003	5.114034e-004
1.252782727144038e-003	1.188967e-003	5.122566e-004
1.257528939922798e-003	1.177178e-003	5.017084e-004
1.265215526346326e-003	1.128374e-003	4.575537e-004
1.277165474940768e-003	9.890072e-004	3.381940e-004
1.289688792197457e-003	7.173028e-004	1.648995e-004
1.298180570660523e-003	3.927831e-004	2.637355e-005
1.305689978551717e-003	2.287842e-005	-1.008749e-004
1.313270636346919e-003	-3.437303e-004	-2.211415e-004
1.323988188443594e-003	-7.836687e-004	-3.632875e-004
1.336391241897766e-003	-1.175116e-003	-4.877247e-004
1.340845293533188e-003	-1.269616e-003	-5.172302e-004
1.344147883539332e-003	-1.310396e-003	-5.295196e-004
1.347621003185780e-003	-1.331307e-003	-5.352114e-004
1.352114379771620e-003	-1.329727e-003	-5.332165e-004
1.356441907017340e-003	-1.294277e-003	-5.203332e-004
1.363461903678447e-003	-1.163509e-003	-4.762591e-004
1.374602180328841e-003	-8.230080e-004	-3.653204e-004
1.387088160667793e-003	-3.047465e-004	-1.995859e-004
1.396325077588288e-003	1.466500e-004	-5.670264e-005
1.404825988063315e-003	5.423201e-004	8.083400e-005
1.413431308620720e-003	8.186781e-004	2.138433e-004
1.425226022035866e-003	1.035655e-003	3.749339e-004
1.434790395870590e-003	1.153738e-003	4.814391e-004
1.439680473640864e-003	1.197037e-003	5.219713e-004
1.443276385038157e-003	1.219011e-003	5.428655e-004
1.446570558087546e-003	1.232324e-003	5.556659e-004
1.449583209731396e-003	1.238730e-003	5.619468e-004
1.452845079297555e-003	1.238652e-003	5.621437e-004
1.457630316102896e-003	1.224881e-003	5.495999e-004
1.465378801701010e-003	1.170476e-003	4.997186e-004
1.477321088162774e-003	1.020419e-003	3.680929e-004
1.489922096989631e-003	7.407051e-004	1.771630e-004
1.498533925898667e-003	4.147921e-004	2.398892e-005
1.506147690952335e-003	4.324133e-005	-1.163292e-004
1.513842170560992e-003	-3.267515e-004	-2.486143e-004
1.524618073645456e-003	-7.685291e-004	-4.044617e-004
1.535479799757992e-003	-1.113413e-003	-5.245029e-004
1.540180499661496e-003	-1.215932e-003	-5.596352e-004
1.543649885761009e-003	-1.262473e-003	-5.751350e-004
1.547019729383640e-003	-1.287047e-003	-5.827838e-004
1.550777472292167e-003	-1.292859e-003	-5.836057e-004
1.554265923970224e-003	-1.275041e-003	-5.761539e-004
1.559938266682832e-003	-1.196292e-003	-5.466970e-004
1.569081705212244e-003	-9.681223e-004	-4.647748e-004
1.581097393316789e-003	-5.277040e-004	-3.102582e-004
1.592127650318097e-003	-2.092745e-005	-1.348214e-004
1.600866202769433e-003	3.998495e-004	1.758317e-005
1.609989327982779e-003	7.524408e-004	1.763025e-004
1.619204100613830e-003	9.692931e-004	3.204852e-004
1.633428661827038e-003	1.176861e-003	5.059332e-004
1.638700307100226e-003	1.232471e-003	5.578735e-004
1.642547069454140e-003	1.259751e-003	5.838803e-004
1.645664698911760e-003	1.274639e-003	5.982001e-004
1.648958958395864e-003	1.283220e-003	6.065827e-004
1.652612947524080e-003	1.284120e-003	6.077169e-004
1.657252867666292e-003	1.270878e-003	5.955478e-004
1.664770648258621e-003	1.216411e-003	5.450821e-004
1.676555713369733e-003	1.064757e-003	4.086763e-004
1.689061310831514e-003	7.959591e-004	2.082382e-004
1.697847742806260e-003	4.817152e-004	4.144108e-005
1.705567989496417e-003	1.139583e-004	-1.116417e-004
1.713416193303848e-003	-2.662807e-004	-2.581149e-004
1.723715302049485e-003	-6.899380e-004	-4.192515e-004
1.736310496468044e-003	-1.088970e-003	-5.690416e-004
1.740786232516965e-003	-1.184735e-003	-6.045701e-004
1.744103577362362e-003	-1.226079e-003	-6.195700e-004
1.747567402645522e-003	-1.247255e-003	-6.267585e-004
1.752094361294359e-003	-1.246036e-003	-6.250885e-004
1.756409338036913e-003	-1.211055e-003	-6.106799e-004
1.763409286541200e-003	-1.081464e-003	-5.602316e-004
1.774446913769350e-003	-7.457613e-004	-4.330020e-004
1.786896011505279e-003	-2.308221e-004	-2.407453e-004
1.796147856358326e-003	2.179350e-004	-7.356732e-005
1.804745029456093e-003	6.056096e-004	8.953916e-005
1.813391453924257e-003	8.719871e-004	2.465755e-004
1.825087451956789e-003	1.095504e-003	4.332213e-004
1.835137435107264e-003	1.235179e-003	5.625390e-004
1.839931871825095e-003	1.282747e-003	6.076948e-004
1.843464052205378e-003	1.306444e-003	6.304417e-004
1.846796048614704e-003	1.320575e-003	6.441245e-004
1.850380319479766e-003	1.327537e-003	6.510137e-004
1.853619275570966e-003	1.325256e-003	6.490754e-004
1.858888436677594e-003	1.302881e-003	6.282086e-004
1.867400910667462e-003	1.225689e-003	5.562639e-004
1.879450272696812e-003	1.040568e-003	3.913149e-004
1.892617446412680e-003	7.065578e-004	1.524691e-004
1.901319434386304e-003	3.572638e-004	-2.698418e-005
1.909424336804004e-003	-3.873114e-005	-1.954706e-004
1.917662769457383e-003	-4.146592e-004	-3.490943e-004
1.929571401756093e-003	-8.633058e-004	-5.304764e-004
1.937143991114265e-003	-1.075892e-003	-6.157220e-004
1.941397395656186e-003	-1.155340e-003	-6.472293e-004
1.944562633745421e-003	-1.191734e-003	-6.613330e-004
1.948123717635450e-003	-1.210896e-003	-6.682674e-004
1.952301938043472e-003	-1.207154e-003	-6.657137e-004
1.956747028009621e-003	-1.168228e-003	-6.489000e-004
1.963954637659978e-003	-1.030224e-003	-5.920109e-004
1.975104337454024e-003	-6.833014e-004	-4.524217e-004
1.987678577850622e-003	-1.556731e-004	-2.430105e-004
1.996924237607320e-003	2.886737e-004	-6.403898e-005
2.005604362052415e-003	6.626190e-004	1.114419e-004
2.014314662463896e-003	9.161697e-004	2.785867e-004
2.026353304054917e-003	1.144159e-003	4.794463e-004
2.035841944220236e-003	1.278503e-003	6.053073e-004
2.040444145233807e-003	1.324526e-003	6.492870e-004
2.043847193190918e-003	1.347242e-003	6.712059e-004
2.047257638025476e-003	1.360791e-003	6.843950e-004
2.051500018664421e-003	1.366302e-003	6.899519e-004
2.055442159392796e-003	1.358560e-003	6.828174e-004
2.061844934577520e-003	1.317516e-003	6.441873e-004
2.072116750059467e-003	1.194521e-003	5.294445e-004
2.084388155096407e-003	9.684091e-004	3.286965e-004
2.094325978953997e-003	6.831059e-004	1.264769e-004
2.102407623483622e-003	3.410513e-004	-5.276710e-005
2.110918326431451e-003	-7.408432e-005	-2.377360e-004
2.119573698203160e-003	-4.569617e-004	-4.027176e-004
2.132025603887461e-003	-9.039143e-004	-5.931809e-004
2.137892924500205e-003	-1.057556e-003	-6.581550e-004
2.141949310422850e-003	-1.127065e-003	-6.872238e-004
2.144978244200902e-003	-1.159246e-003	-7.003529e-004
2.148629137463439e-003	-1.176472e-003	-7.068363e-004
2.152490209560369e-003	-1.170828e-003	-7.034196e-004
2.157053258849220e-003	-1.128194e-003	-6.840603e-004
2.164448775166881e-003	-9.823430e-004	-6.206306e-004
2.175718780575571e-003	-6.245379e-004	-4.686483e-004
2.188408791891781e-003	-8.527928e-005	-2.426323e-004
2.197658963265338e-003	3.524899e-004	-5.237189e-005
2.206417671772236e-003	7.110976e-004	1.347642e-004
2.215213856076123e-003	9.563977e-004	3.116137e-004
2.227480469639757e-003	1.190378e-003	5.238120e-004
2.236423822449052e-003	1.318754e-003	6.451805e-004
2.240869133476351e-003	1.363353e-003	6.880233e-004
2.244165771133906e-003	1.385192e-003	7.091596e-004
2.247642648885306e-003	1.398267e-003	7.219255e-004
2.252122462699825e-003	1.402002e-003	7.257872e-004
2.256455057356092e-003	1.389728e-003	7.142820e-004
2.263483147646275e-003	1.334626e-003	6.621353e-004
2.274703783138580e-003	1.178966e-003	5.166013e-004
2.287102242868716e-003	9.222834e-004	2.903820e-004
2.296413042205532e-003	6.298336e-004	8.548567e-005
2.304405834247156e-003	2.772056e-004	-1.014337e-004
2.312657318780547e-003	-1.222178e-004	-2.861495e-004
2.322193170337471e-003	-5.256570e-004	-4.682807e-004
2.334798610500549e-003	-9.449383e-004	-6.555041e-004
2.339686417039194e-003	-1.058445e-003	-7.058096e-004
2.343280818957667e-003	-1.109652e-003	-7.282263e-004
2.346575880957353e-003	-1.137196e-003	-7.399297e-004
2.349582592485503e-003	-1.146224e-003	-7.432935e-004
2.352844849845400e-003	-1.136852e-003	-7.382890e-004
2.357629943057148e-003	-1.086826e-003	-7.147511e-004
2.365378200965561e-003	-9.256653e-004	-6.415586e-004
2.376865738946769e-003	-5.475456e-004	-4.734719e-004
2.389763905348696e-003	1.273250e-005	-2.273473e-004
2.399046807325981e-003	4.418814e-004	-2.520672e-005
2.407921630861581e-003	7.774751e-004	1.734551e-004
2.416834222277467e-003	1.009739e-003	3.582150e-004
2.429519497188258e-003	1.249688e-003	5.808677e-004
2.437331263763221e-003	1.360397e-003	6.863734e-004
2.441535164017062e-003	1.401418e-003	7.259490e-004
2.444666286449333e-003	1.421389e-003	7.453447e-004
2.448249617143235e-003	1.433927e-003	7.576323e-004
2.452348860933948e-003	1.435947e-003	7.598210e-004
2.456823354780329e-003	1.420971e-003	7.456779e-004
2.464077836504400e-003	1.358658e-003	6.864606e-004
2.475637648410723e-003	1.186348e-003	5.246671e-004
2.488078770040652e-003	9.145861e-004	2.830423e-004
2.497263420418573e-003	6.183184e-004	7.020590e-005
