Freq.	V(salida)
Step Information: C=100n  (Run: 1/5)
1.00000000000000e+000	-4.67754184355138e-007,7.09348079957995e-009
1.02329299228075e+000	-4.89793474912937e-007,7.60071995200624e-009
1.04712854805090e+000	-5.12870935475418e-007,8.14422653345060e-009
1.07151930523761e+000	-5.37035444325742e-007,8.72659314995178e-009
1.09647819614318e+000	-5.62338178569321e-007,9.35059768070465e-009
1.12201845430196e+000	-5.88832722017125e-007,1.00192165105943e-008
1.14815362149688e+000	-6.16575178109211e-007,1.07356387069035e-008
1.17489755493953e+000	-6.45624288111992e-007,1.15032812074589e-008
1.20226443461741e+000	-6.76041554833121e-007,1.23258050922509e-008
1.23026877081238e+000	-7.07891372108762e-007,1.32071330156736e-008
1.25892541179417e+000	-7.41241160329890e-007,1.41514678820168e-008
1.28824955169313e+000	-7.76161508286100e-007,1.51633128527036e-008
1.31825673855641e+000	-8.12726321617828e-007,1.62474927800344e-008
1.34896288259165e+000	-8.51012978181158e-007,1.74091771689307e-008
1.38038426460288e+000	-8.91102490643028e-007,1.86539047753613e-008
1.41253754462275e+000	-9.33079676638532e-007,1.99876099578232e-008
1.44543977074593e+000	-9.77033336837339e-007,2.14166509065128e-008
1.47910838816821e+000	-1.02305644128098e-006,2.29478398836133e-008
1.51356124843621e+000	-1.07124632436962e-006,2.45884756176036e-008
1.54881661891248e+000	-1.12170488889288e-006,2.63463780045570e-008
1.58489319246111e+000	-1.17453881951698e-006,2.82299252802358e-008
1.62181009735893e+000	-1.22985980615887e-006,3.02480938383583e-008
1.65958690743756e+000	-1.28778477769611e-006,3.24105008827681e-008
1.69824365246174e+000	-1.34843614648173e-006,3.47274501145241e-008
1.73780082874937e+000	-1.41194206415255e-006,3.72099806690394e-008
1.77827941003892e+000	-1.47843668924174e-006,3.98699195336237e-008
1.81970085860998e+000	-1.54806046712737e-006,4.27199376919428e-008
1.86208713666287e+000	-1.62096042287199e-006,4.57736102592787e-008
1.90546071796325e+000	-1.69729046753162e-006,4.90454808910152e-008
1.94984459975804e+000	-1.77721171853737e-006,5.25511307666150e-008
1.99526231496888e+000	-1.86089283477784e-006,5.63072524725555e-008
2.04173794466953e+000	-1.94851036703700e-006,6.03317291303657e-008
2.08929613085404e+000	-2.04024912446962e-006,6.46437191401756e-008
2.13796208950223e+000	-2.13630255782377e-006,6.92637469360539e-008
2.18776162394955e+000	-2.23687316015025e-006,7.42138001771864e-008
2.23872113856834e+000	-2.34217288576721e-006,7.95174338284590e-008
2.29086765276777e+000	-2.45242358828085e-006,8.51998816157284e-008
2.34422881531992e+000	-2.56785747849376e-006,9.12881753747832e-008
2.39883291901949e+000	-2.68871760306632e-006,9.78112728491744e-008
2.45470891568503e+000	-2.81525834483025e-006,1.04800194530627e-007
2.51188643150958e+000	-2.94774594568747e-006,1.12288170176877e-007
2.57039578276886e+000	-3.08645905306429e-006,1.20310795685856e-007
2.63026799189538e+000	-3.23168929092762e-006,1.28906201052040e-007
2.69153480392691e+000	-3.38374185640593e-006,1.38115230180853e-007
2.75422870333816e+000	-3.54293614309831e-006,1.47981633390582e-007
2.81838293126445e+000	-3.70960639219266e-006,1.58552273488274e-007
2.88403150312660e+000	-3.88410237255385e-006,1.69877346366902e-007
2.95120922666638e+000	-4.06679009098496e-006,1.82010617136167e-007
3.01995172040201e+000	-4.25805253390457e-006,1.95009672868391e-007
3.09029543251359e+000	-4.45829044172407e-006,2.08936193114730e-007
3.16227766016837e+000	-4.66792311725385e-006,2.23856239425771e-007
3.23593656929628e+000	-4.88738926950622e-006,2.39840565194115e-007
3.31131121482591e+000	-5.11714789430841e-006,2.56964947226047e-007
3.38844156139202e+000	-5.35767919317938e-006,2.75310540544241e-007
3.46736850452531e+000	-5.60948553196759e-006,2.94964258024753e-007
3.54813389233575e+000	-5.87309244078755e-006,3.16019176579061e-007
3.63078054770101e+000	-6.14904965683664e-006,3.38574971706718e-007
3.71535229097172e+000	-6.43793221171022e-006,3.62738382365574e-007
3.80189396320560e+000	-6.74034156487481e-006,3.88623708236263e-007
3.89045144994280e+000	-7.05690678499618e-006,4.16353341595163e-007
3.98107170553496e+000	-7.38828578085202e-006,4.46058336155780e-007
4.07380277804112e+000	-7.73516658359753e-006,4.77879015394270e-007
4.16869383470335e+000	-8.09826868217376e-006,5.11965623038250e-007
4.26579518801592e+000	-8.47834441368599e-006,5.48479018573829e-007
4.36515832240165e+000	-8.87618041059172e-006,5.87591420809392e-007
4.46683592150962e+000	-9.29259910656532e-006,6.29487202731693e-007
4.57088189614874e+000	-9.72846030291098e-006,6.74363741096079e-007
4.67735141287197e+000	-1.01846627974118e-005,7.22432324413246e-007
4.78630092322637e+000	-1.06621460774927e-005,7.73919123225455e-007
4.89778819368445e+000	-1.11618920795767e-005,8.29066226811387e-007
5.01187233627271e+000	-1.16849270164895e-005,8.88132750716315e-007
5.12861383991364e+000	-1.22323232747479e-005,9.51396019778071e-007
5.24807460249771e+000	-1.28052013835215e-005,1.01915283160525e-006
5.37031796370252e+000	-1.34047320570162e-005,1.09172080576811e-006
5.49540873857623e+000	-1.40321383119566e-005,1.16943982427970e-006
5.62341325190348e+000	-1.46886976617649e-005,1.25267356927874e-006
5.75439937337156e+000	-1.53757443889442e-005,1.34181116417782e-006
5.88843655355588e+000	-1.60946718970447e-005,1.43726892490546e-006
6.02559586074356e+000	-1.68469351434679e-005,1.53949222825745e-006
6.16595001861481e+000	-1.76340531541934e-005,1.64895750477292e-006
6.30957344480192e+000	-1.84576116213280e-005,1.76617436396983e-006
6.45654229034654e+000	-1.93192655841669e-005,1.89168786021185e-006
6.60693448007594e+000	-2.02207421942029e-005,2.02608090793060e-006
6.76082975391980e+000	-2.11638435642483e-005,2.16997685539928e-006
6.91830970918935e+000	-2.21504497015116e-005,2.32404222673967e-006
7.07945784384136e+000	-2.31825215241155e-005,2.48898964234708e-006
7.24435960074988e+000	-2.42621039601428e-005,2.66558092843620e-006
7.41310241300916e+000	-2.53913291278473e-005,2.85463042694113e-006
7.58577575029182e+000	-2.65724195951685e-005,3.05700851754788e-006
7.76247116628690e+000	-2.78076917161281e-005,3.27364536418953e-006
7.94328234724279e+000	-2.90995590410739e-005,3.50553489889863e-006
8.12830516164097e+000	-3.04505357970541e-005,3.75373905647811e-006
8.31763771102669e+000	-3.18632404338546e-005,4.01939227402407e-006
8.51138038202374e+000	-3.33403992303983e-005,4.30370626990024e-006
8.70963589956078e+000	-3.48848499553162e-005,4.60797511733436e-006
8.91250938133743e+000	-3.64995455744790e-005,4.93358062835226e-006
9.12010839355907e+000	-3.81875579972329e-005,5.28199806431514e-006
9.33254300796988e+000	-3.99520818518610e-005,5.65480218983103e-006
9.54992586021433e+000	-4.17964382795486e-005,6.05367368730947e-006
9.77237220955808e+000	-4.37240787347103e-005,6.48040594987110e-006
9.99999999999997e+000	-4.57385887780479e-005,6.93691227073155e-006
1.02329299228075e+001	-4.78436918470871e-005,7.42523344752683e-006
1.04712854805090e+001	-5.00432529871839e-005,7.94754582032455e-006
1.07151930523760e+001	-5.23412825241267e-005,8.50616976226480e-006
1.09647819614318e+001	-5.47419396574394e-005,9.10357864187616e-006
1.12201845430196e+001	-5.72495359513713e-005,9.74240827611178e-006
1.14815362149688e+001	-5.98685386982453e-005,1.04254668930078e-005
1.17489755493953e+001	-6.26035741264277e-005,1.11557456225904e-005
1.20226443461741e+001	-6.54594304226329e-005,1.19364295342188e-005
1.23026877081238e+001	-6.84410605355333e-005,1.27709092379041e-005
1.25892541179416e+001	-7.15535847248489e-005,1.36627930663171e-005
1.28824955169313e+001	-7.48022928170663e-005,1.46159198530990e-005
1.31825673855640e+001	-7.81926461258987e-005,1.56343723217698e-005
1.34896288259165e+001	-8.17302789923069e-005,1.67224910978658e-005
1.38038426460288e+001	-8.54209998956696e-005,1.78848893550152e-005
1.41253754462275e+001	-8.92707920842010e-005,1.91264681033201e-005
1.44543977074592e+001	-9.32858136693291e-005,2.04524321257564e-005
1.47910838816820e+001	-9.74723971251738e-005,2.18683065651662e-005
1.51356124843620e+001	-1.01837048130752e-004,2.33799541608608e-005
1.54881661891248e+001	-1.06386443689121e-004,2.49935931298427e-005
1.58489319246111e+001	-1.11127429454075e-004,2.67158156830242e-005
1.62181009735892e+001	-1.16067016191900e-004,2.85536071617854e-005
1.65958690743755e+001	-1.21212375302314e-004,3.05143657744364e-005
1.69824365246174e+001	-1.26570833320001e-004,3.26059229059252e-005
1.73780082874937e+001	-1.32149865315331e-004,3.48365639671115e-005
1.77827941003892e+001	-1.37957087110726e-004,3.72150497423873e-005
1.81970085860998e+001	-1.44000246227251e-004,3.97506381861359e-005
1.86208713666286e+001	-1.50287211474756e-004,4.24531066095648e-005
1.90546071796324e+001	-1.56825961098274e-004,4.53327741898309e-005
1.94984459975804e+001	-1.63624569393585e-004,4.84005247231250e-005
1.99526231496887e+001	-1.70691191705721e-004,5.16678295323686e-005
2.04173794466952e+001	-1.78034047726325e-004,5.51467704287078e-005
2.08929613085403e+001	-1.85661403008817e-004,5.88500626138676e-005
2.13796208950222e+001	-1.93581548624718e-004,6.27910773978444e-005
2.18776162394954e+001	-2.01802778890202e-004,6.69838645934310e-005
2.23872113856833e+001	-2.10333367099253e-004,7.14431744358255e-005
2.29086765276776e+001	-2.19181539208715e-004,7.61844788621421e-005
2.34422881531991e+001	-2.28355445431186e-004,8.12239919722172e-005
2.39883291901948e+001	-2.37863129704360e-004,8.65786894789071e-005
2.45470891568502e+001	-2.47712497019975e-004,9.22663269432373e-005
2.51188643150957e+001	-2.57911278612237e-004,9.83054565775584e-005
2.57039578276885e+001	-2.68466995024404e-004,1.04715442388616e-004
2.63026799189537e+001	-2.79386917093341e-004,1.11516473422368e-004
2.69153480392690e+001	-2.90678024914968e-004,1.18729574863746e-004
2.75422870333815e+001	-3.02346964879083e-004,1.26376616737946e-004
2.81838293126444e+001	-3.14400004889528e-004,1.34480319955334e-004
2.88403150312659e+001	-3.26842987915053e-004,1.43064259440047e-004
2.95120922666637e+001	-3.39681284047653e-004,1.52152864083606e-004
3.01995172040200e+001	-3.52919741277923e-004,1.61771413269236e-004
3.09029543251358e+001	-3.66562635230955e-004,1.71946029720700e-004
3.16227766016837e+001	-3.80613618141334e-004,1.82703668441867e-004
3.23593656929627e+001	-3.95075667381029e-004,1.94072101529838e-004
3.31131121482590e+001	-4.09951033889139e-004,2.06079898665858e-004
3.38844156139201e+001	-4.25241190887069e-004,2.18756403114741e-004
3.46736850452530e+001	-4.40946783295713e-004,2.32131703094873e-004
3.54813389233574e+001	-4.57067578302336e-004,2.46236598417658e-004
3.63078054770100e+001	-4.73602417553023e-004,2.61102562337084e-004
3.71535229097171e+001	-4.90549171471137e-004,2.76761698597126e-004
3.80189396320559e+001	-5.07904696222271e-004,2.93246693716402e-004
3.89045144994279e+001	-5.25664793860947e-004,3.10590764605841e-004
3.98107170553495e+001	-5.43824176202924e-004,3.28827601675170e-004
4.07380277804111e+001	-5.62376432968719e-004,3.47991307647726e-004
4.16869383470333e+001	-5.81314004737913e-004,3.68116332368723e-004
4.26579518801591e+001	-6.00628161239766e-004,3.89237403959959e-004
4.36515832240164e+001	-6.20308985482600e-004,4.11389456741691e-004
4.46683592150961e+001	-6.40345364192306e-004,4.34607556409601e-004
4.57088189614873e+001	-6.60724984988947e-004,4.58926823020169e-004
4.67735141287196e+001	-6.81434340679635e-004,4.84382352399513e-004
4.78630092322636e+001	-7.02458740985873e-004,5.11009136647670e-004
4.89778819368444e+001	-7.23782331955013e-004,5.38841984461289e-004
5.01187233627270e+001	-7.45388123228736e-004,5.67915442040743e-004
5.12861383991362e+001	-7.67258023257697e-004,5.98263715381987e-004
5.24807460249770e+001	-7.89372882461622e-004,6.29920594777627e-004
5.37031796370250e+001	-8.11712544239650e-004,6.62919382364376e-004
5.49540873857622e+001	-8.34255903638137e-004,6.97292823555158e-004
5.62341325190346e+001	-8.56980973384051e-004,7.33073043181885e-004
5.75439937337154e+001	-8.79864956893513e-004,7.70291487150179e-004
5.88843655355586e+001	-9.02884327768728e-004,8.08978870369034e-004
6.02559586074355e+001	-9.26014915204525e-004,8.49165131667384e-004
6.16595001861479e+001	-9.49231994639888e-004,8.90879396345853e-004
6.30957344480190e+001	-9.72510382912051e-004,9.34149946937178e-004
6.45654229034652e+001	-9.95824537102706e-004,9.79004202663008e-004
6.60693448007593e+001	-1.01914865620905e-003,1.02546870798071e-003
6.76082975391978e+001	-1.04245678472824e-003,1.07356913051166e-003
6.91830970918933e+001	-1.06572291721312e-003,1.12333026853564e-003
7.07945784384134e+001	-1.08892110284082e-003,1.17477606812535e-003
7.24435960074986e+001	-1.11202554903420e-003,1.22792964988293e-003
7.41310241300914e+001	-1.13501072318902e-003,1.28281334512966e-003
7.58577575029180e+001	-1.15785145158733e-003,1.33944874129177e-003
7.76247116628688e+001	-1.18052301461870e-003,1.39785673612261e-003
7.94328234724277e+001	-1.20300123748486e-003,1.45805760030494e-003
8.12830516164095e+001	-1.22526257562906e-003,1.52007104789028e-003
8.31763771102667e+001	-1.24728419420673e-003,1.58391631395462e-003
8.51138038202372e+001	-1.26904404099842e-003,1.64961223878400e-003
8.70963589956076e+001	-1.29052091225615e-003,1.71717735785024e-003
8.91250938133741e+001	-1.31169451107002e-003,1.78662999679540e-003
9.12010839355905e+001	-1.33254549793916e-003,1.85798837061747e-003
9.33254300796986e+001	-1.35305553333053e-003,1.93127068623350e-003
9.54992586021431e+001	-1.37320731210617e-003,2.00649524759659e-003
9.77237220955805e+001	-1.39298458979466e-003,2.08368056255176e-003
9.99999999999995e+001	-1.41237220077269e-003,2.16284545063999e-003
1.02329299228075e+002	-1.43135606850776e-003,2.24400915108980e-003
1.04712854805089e+002	-1.44992320809028e-003,2.32719143027894e-003
1.07151930523760e+002	-1.46806172135347e-003,2.41241268799768e-003
1.09647819614318e+002	-1.48576078494073e-003,2.49969406190077e-003
1.12201845430196e+002	-1.50301063173206e-003,2.58905752959694e-003
1.14815362149688e+002	-1.51980252608405e-003,2.68052600788914e-003
1.17489755493952e+002	-1.53612873337160e-003,2.77412344874533e-003
1.20226443461741e+002	-1.55198248434332e-003,2.86987493164865e-003
1.23026877081237e+002	-1.56735793481830e-003,2.96780675204260e-003
1.25892541179416e+002	-1.58225012125862e-003,3.06794650565399e-003
1.28824955169313e+002	-1.59665491275148e-003,3.17032316853960e-003
1.31825673855640e+002	-1.61056895992645e-003,3.27496717276511e-003
1.34896288259165e+002	-1.62398964131946e-003,3.38191047768018e-003
1.38038426460288e+002	-1.63691500767534e-003,3.49118663680767e-003
1.41253754462275e+002	-1.64934372465594e-003,3.60283086041265e-003
1.44543977074592e+002	-1.66127501439350e-003,3.71688007385936e-003
1.47910838816820e+002	-1.67270859629613e-003,3.83337297190340e-003
1.51356124843620e+002	-1.68364462748047e-003,3.95235006909729e-003
1.54881661891247e+002	-1.69408364317000e-003,4.07385374651659e-003
1.58489319246110e+002	-1.70402649736247e-003,4.19792829503532e-003
1.62181009735892e+002	-1.71347430403302e-003,4.32461995539753e-003
1.65958690743755e+002	-1.72242837910410e-003,4.45397695534496e-003
1.69824365246173e+002	-1.73089018337803e-003,4.58604954406946e-003
1.73780082874936e+002	-1.73886126659327e-003,4.72089002426492e-003
1.77827941003891e+002	-1.74634321273359e-003,4.85855278205432e-003
1.81970085860997e+002	-1.75333758668831e-003,4.99909431506645e-003
1.86208713666286e+002	-1.75984588233174e-003,5.14257325893354e-003
1.90546071796323e+002	-1.76586947206420e-003,5.28905041247390e-003
1.94984459975803e+002	-1.77140955783128e-003,5.43858876181563e-003
1.99526231496887e+002	-1.77646712361508e-003,5.59125350370833e-003
2.04173794466952e+002	-1.78104288937114e-003,5.74711206825780e-003
2.08929613085403e+002	-1.78513726636553e-003,5.90623414130713e-003
2.13796208950222e+002	-1.78875031385073e-003,6.06869168667452e-003
2.18776162394954e+002	-1.79188169700363e-003,6.23455896844532e-003
2.23872113856832e+002	-1.79453064603708e-003,6.40391257350182e-003
2.29086765276776e+002	-1.79669591638472e-003,6.57683143446105e-003
2.34422881531991e+002	-1.79837574985003e-003,6.75339685317717e-003
2.39883291901947e+002	-1.79956783660223e-003,6.93369252495216e-003
2.45470891568501e+002	-1.80026927789531e-003,7.11780456358496e-003
2.51188643150956e+002	-1.80047654938102e-003,7.30582152737757e-003
2.57039578276885e+002	-1.80018546488234e-003,7.49783444620375e-003
2.63026799189536e+002	-1.79939114049074e-003,7.69393684973523e-003
2.69153480392690e+002	-1.79808795884710e-003,7.89422479690955e-003
2.75422870333815e+002	-1.79626953346598e-003,8.09879690671232e-003
2.81838293126443e+002	-1.79392867295934e-003,8.30775439033890e-003
2.88403150312659e+002	-1.79105734501705e-003,8.52120108478965e-003
2.95120922666637e+002	-1.78764663999908e-003,8.73924348794611e-003
3.01995172040200e+002	-1.78368673399572e-003,8.96199079516629e-003
3.09029543251357e+002	-1.77916685121076e-003,9.18955493743116e-003
3.16227766016836e+002	-1.77407522552323e-003,9.42205062106693e-003
3.23593656929626e+002	-1.76839906108365e-003,9.65959536906177e-003
3.31131121482589e+002	-1.76212449179969e-003,9.90230956399007e-003
3.38844156139200e+002	-1.75523653956770e-003,1.01503164925516e-002
3.46736850452529e+002	-1.74771907110491e-003,1.04037423917283e-002
3.54813389233573e+002	-1.73955475323819e-003,1.06627164965563e-002
3.63078054770099e+002	-1.73072500650358e-003,1.09273710895072e-002
3.71535229097170e+002	-1.72120995691129e-003,1.11978415514682e-002
3.80189396320558e+002	-1.71098838572896e-003,1.14742664143057e-002
3.89045144994278e+002	-1.70003767713533e-003,1.17567874149956e-002
3.98107170553494e+002	-1.68833376359481e-003,1.20455495512974e-002
4.07380277804110e+002	-1.67585106880174e-003,1.23407011389473e-002
4.16869383470332e+002	-1.66256244804109e-003,1.26423938703415e-002
4.26579518801589e+002	-1.64843912580927e-003,1.29507828746771e-002
4.36515832240163e+002	-1.63345063053738e-003,1.32660267795145e-002
4.46683592150960e+002	-1.61756472625421e-003,1.35882877737223e-002
4.57088189614872e+002	-1.60074734102467e-003,1.39177316717606e-002
4.67735141287195e+002	-1.58296249199440e-003,1.42545279792554e-002
4.78630092322635e+002	-1.56417220686718e-003,1.45988499598139e-002
4.89778819368443e+002	-1.54433644163798e-003,1.49508747030218e-002
5.01187233627268e+002	-1.52341299439933e-003,1.53107831935660e-002
5.12861383991361e+002	-1.50135741503228e-003,1.56787603814130e-002
5.24807460249769e+002	-1.47812291059047e-003,1.60549952529755e-002
5.37031796370249e+002	-1.45366024617615e-003,1.64396809031878e-002
5.49540873857620e+002	-1.42791764110486e-003,1.68330146084088e-002
5.62341325190345e+002	-1.40084066014511e-003,1.72351979000625e-002
5.75439937337152e+002	-1.37237209961552e-003,1.76464366389187e-002
5.88843655355584e+002	-1.34245186811254e-003,1.80669410899098e-002
6.02559586074353e+002	-1.31101686163587e-003,1.84969259973709e-002
6.16595001861477e+002	-1.27800083286977e-003,1.89366106605811e-002
6.30957344480188e+002	-1.24333425437113e-003,1.93862190094740e-002
6.45654229034650e+002	-1.20694417540623e-003,1.98459796803757e-002
6.60693448007591e+002	-1.16875407217020e-003,2.03161260916164e-002
6.76082975391976e+002	-1.12868369111303e-003,2.07968965188509e-002
6.91830970918931e+002	-1.08664888508891e-003,2.12885341699077e-002
7.07945784384132e+002	-1.04256144203387e-003,2.17912872589756e-002
7.24435960074984e+002	-9.96328905869775e-004,2.23054090799189e-002
7.41310241300911e+002	-9.47854389321153e-004,2.28311580784977e-002
7.58577575029177e+002	-8.97036378322466e-004,2.33687979232516e-002
7.76247116628685e+002	-8.43768527684098e-004,2.39185975747870e-002
7.94328234724275e+002	-7.87939447674161e-004,2.44808313531873e-002
8.12830516164092e+002	-7.29432481164831e-004,2.50557790032453e-002
8.31763771102664e+002	-6.68125470981453e-004,2.56437257571939e-002
