time	V(salida)	V(vi)
Step Information: C=100n  (Run: 1/5)
0.000000000000000e+000	4.908809e-017	0.000000e+000
5.000000058430487e-008	1.510014e-004	1.570796e-004
1.000000011686097e-007	3.010815e-004	3.141592e-004
2.000000023372195e-007	5.985065e-004	6.283182e-004
4.000000046744390e-007	1.182611e-003	1.256635e-003
8.000000093488779e-007	2.309347e-003	2.513254e-003
1.600000018697756e-006	4.408159e-003	5.026389e-003
3.200000037395512e-006	8.065403e-003	1.005183e-002
6.400000074791024e-006	1.370184e-002	2.009604e-002
1.280000014958205e-005	2.070221e-002	4.013119e-002
2.560000029916409e-005	2.690928e-002	7.986388e-002
4.513125029916410e-005	2.914357e-002	1.393654e-001
6.466250029916410e-005	2.837513e-002	1.968574e-001
8.419375029916411e-005	2.667828e-002	2.513884e-001
1.037250002991641e-004	2.457041e-002	3.021383e-001
1.232562502991641e-004	2.209447e-002	3.483438e-001
1.427875002991641e-004	1.928786e-002	3.893099e-001
1.623187502991641e-004	1.619284e-002	4.244204e-001
1.818500002991641e-004	1.285603e-002	4.531471e-001
2.013812502991641e-004	9.327656e-003	4.750582e-001
2.209125002991641e-004	5.660871e-003	4.898239e-001
2.404437502991640e-004	1.910889e-003	4.972222e-001
2.599750002991640e-004	-1.865824e-003	4.971419e-001
2.795062502991641e-004	-5.612406e-003	4.895840e-001
2.990375002991641e-004	-9.272461e-003	4.746624e-001
3.185687502991641e-004	-1.279091e-002	4.526014e-001
3.381000002991641e-004	-1.611481e-002	4.237328e-001
3.576312502991641e-004	-1.919418e-002	3.884909e-001
3.771625002991641e-004	-2.198272e-002	3.474058e-001
3.966937502991642e-004	-2.443853e-002	3.010953e-001
4.162250002991642e-004	-2.652475e-002	2.502561e-001
4.357562502991642e-004	-2.821007e-002	1.956528e-001
4.552875002991642e-004	-2.946924e-002	1.381067e-001
4.748187502991642e-004	-3.028344e-002	7.848336e-002
4.943500002991642e-004	-3.064052e-002	1.767954e-002
5.138812502991642e-004	-3.053525e-002	-4.339019e-002
5.334125002991642e-004	-2.996930e-002	-1.038073e-001
5.529437502991642e-004	-2.895128e-002	-1.626630e-001
5.724750002991643e-004	-2.749659e-002	-2.190722e-001
5.920062502991643e-004	-2.562716e-002	-2.721863e-001
6.115375002991643e-004	-2.337112e-002	-3.212065e-001
6.310687502991643e-004	-2.076241e-002	-3.653953e-001
6.506000002991643e-004	-1.784020e-002	-4.040884e-001
6.701312502991643e-004	-1.464840e-002	-4.367035e-001
6.896625002991644e-004	-1.123492e-002	-4.627503e-001
7.091937502991644e-004	-7.650985e-003	-4.818368e-001
7.287250002991644e-004	-3.951970e-003	-4.940051e-001
7.448206086292526e-004	-8.527300e-004	-4.982874e-001
7.630743418223780e-004	2.672234e-003	-4.965629e-001
7.826055918223780e-004	6.403433e-003	-4.877032e-001
8.021368418223780e-004	1.004097e-002	-4.716309e-001
8.216680918223781e-004	1.352947e-002	-4.484648e-001
8.411993418223781e-004	1.681639e-002	-4.185533e-001
8.607305918223781e-004	1.985224e-002	-3.823464e-001
8.802618418223781e-004	2.259131e-002	-3.403887e-001
8.997930918223781e-004	2.499231e-002	-2.933112e-001
9.193243418223781e-004	2.701902e-002	-2.418220e-001
9.388555918223782e-004	2.864085e-002	-1.866956e-001
9.583868418223782e-004	2.983329e-002	-1.287611e-001
9.779180918223782e-004	3.057829e-002	-6.888998e-002
9.974493418223782e-004	3.086455e-002	-7.982654e-003
1.016980591822378e-003	3.068767e-002	5.304474e-002
1.036511841822378e-003	3.005025e-002	1.132743e-001
1.056043091822378e-003	2.896182e-002	1.718001e-001
1.075574341822378e-003	2.743873e-002	2.277419e-001
1.095105591822378e-003	2.550387e-002	2.802582e-001
1.114636841822378e-003	2.318635e-002	3.285592e-001
1.134168091822378e-003	2.052107e-002	3.719183e-001
1.153699341822378e-003	1.754814e-002	4.096834e-001
1.173230591822378e-003	1.431235e-002	4.412866e-001
1.192761841822378e-003	1.086243e-002	4.662523e-001
1.212293091822378e-003	7.250337e-003	4.842052e-001
1.231824341822378e-003	3.531787e-003	4.952281e-001
1.247676074985977e-003	4.704462e-004	4.986603e-001
1.264136188250303e-003	-2.711626e-003	4.964514e-001
1.283667438250303e-003	-6.442622e-003	4.870163e-001
1.303198688250303e-003	-1.007665e-002	4.705511e-001
1.322729938250303e-003	-1.355769e-002	4.470083e-001
1.342261188250303e-003	-1.683327e-002	4.167421e-001
1.361792438250303e-003	-1.985411e-002	3.802078e-001
1.381323688250303e-003	-2.257481e-002	3.379548e-001
1.400854938250303e-003	-2.495449e-002	2.906186e-001
1.420386188250303e-003	-2.695742e-002	2.389112e-001
1.439917438250303e-003	-2.855354e-002	1.836104e-001
1.459448688250303e-003	-2.971896e-002	1.255479e-001
1.478979938250303e-003	-3.043624e-002	6.559706e-002
1.498511188250303e-003	-3.069471e-002	4.659584e-003
1.518042438250303e-003	-3.049059e-002	-5.634798e-002
1.537573688250303e-003	-2.982706e-002	-1.165080e-001
1.557104938250303e-003	-2.871417e-002	-1.749157e-001
1.576636188250303e-003	-2.716875e-002	-2.306924e-001
1.596167438250303e-003	-2.521406e-002	-2.829994e-001
1.615698688250303e-003	-2.287952e-002	-3.310497e-001
1.635229938250303e-003	-2.020023e-002	-3.741208e-001
1.654761188250303e-003	-1.721643e-002	-4.115647e-001
1.674292438250303e-003	-1.397293e-002	-4.428183e-001
1.693823688250303e-003	-1.051841e-002	-4.674115e-001
1.713354938250303e-003	-6.904727e-003	-4.849744e-001
1.732886188250303e-003	-3.187067e-003	-4.955320e-001
1.749405051094904e-003	3.607695e-007	-4.987443e-001
1.764778867646190e-003	2.968031e-003	-4.963732e-001
1.784310117646190e-003	6.692380e-003	-4.865900e-001
1.803841367646190e-003	1.031931e-002	-4.698873e-001
1.823372617646190e-003	1.379256e-002	-4.461172e-001
1.842903867646190e-003	1.705977e-002	-4.156370e-001
1.862435117646190e-003	2.007176e-002	-3.789052e-001
1.881966367646190e-003	2.278317e-002	-3.364743e-001
1.901497617646190e-003	2.515313e-002	-2.889826e-001
1.921028867646190e-003	2.714589e-002	-2.371443e-001
1.940560117646190e-003	2.873138e-002	-1.817391e-001
1.960091367646190e-003	2.988563e-002	-1.236004e-001
1.979622617646190e-003	3.059119e-002	-6.360261e-002
1.999153867646190e-003	3.083733e-002	-2.648195e-003
2.018685117646190e-003	3.062029e-002	5.834605e-002
2.038216367646190e-003	2.994325e-002	1.184627e-001
2.057747617646190e-003	2.881636e-002	1.767976e-001
2.077278867646190e-003	2.725655e-002	2.324733e-001
2.096810117646190e-003	2.528726e-002	2.846523e-001
2.116341367646190e-003	2.293814e-002	3.325500e-001
2.135872617646190e-003	2.024454e-002	3.754457e-001
2.155403867646190e-003	1.724704e-002	4.126945e-001
2.174935117646190e-003	1.399078e-002	4.437358e-001
2.194466367646190e-003	1.052480e-002	4.681031e-001
2.213997617646190e-003	6.901310e-003	4.854296e-001
2.233528867646190e-003	3.175637e-003	4.957052e-001
2.250451477803203e-003	-9.476795e-005	4.987227e-001
2.265735149292714e-003	-3.047426e-003	4.960952e-001
2.285266399292714e-003	-6.771702e-003	4.859410e-001
2.304797649292714e-003	-1.039506e-002	4.688856e-001
2.324328899292714e-003	-1.386101e-002	4.447777e-001
2.343860149292714e-003	-1.711733e-002	4.139799e-001
2.363391399292714e-003	-2.011506e-002	3.769555e-001
2.382922649292714e-003	-2.280911e-002	3.342614e-001
2.402453899292714e-003	-2.515901e-002	2.865396e-001
2.421985149292714e-003	-2.712948e-002	2.345080e-001
2.441516399292714e-003	-2.869096e-002	1.789492e-001
2.461047649292714e-003	-2.982005e-002	1.206988e-001
2.480578899292714e-003	-3.049987e-002	6.063303e-002
2.500110149292714e-003	-3.072031e-002	-3.447431e-004
2.519641399292714e-003	-3.047816e-002	-6.131733e-002
2.539172649292714e-003	-2.977716e-002	-1.213676e-001
2.558703899292714e-003	-2.862793e-002	-1.795925e-001
2.578235149292714e-003	-2.704782e-002	-2.351161e-001
2.597766399292714e-003	-2.506064e-002	-2.871033e-001
2.617297649292714e-003	-2.269627e-002	-3.347722e-001
2.636828899292714e-003	-1.999026e-002	-3.774059e-001
2.656360149292714e-003	-1.698324e-002	-4.143630e-001
2.675891399292714e-003	-1.372037e-002	-4.450877e-001
2.695422649292714e-003	-1.025062e-002	-4.691179e-001
2.714953899292714e-003	-6.626064e-003	-4.860921e-001
2.734485149292714e-003	-2.901613e-003	-4.959478e-001
2.752008459549085e-003	4.814590e-004	-4.985553e-001
2.768270378407421e-003	3.616733e-003	-4.951549e-001
2.787801628407421e-003	7.327762e-003	-4.841355e-001
2.807332878407421e-003	1.093143e-002	-4.661479e-001
2.826864128407421e-003	1.437179e-002	-4.411490e-001
2.846395378407421e-003	1.759707e-002	-4.095147e-001
2.865926628407421e-003	2.055872e-002	-3.717210e-001
2.885457878407421e-003	2.321212e-002	-3.283363e-001
2.904989128407421e-003	2.551729e-002	-2.800131e-001
2.924520378407421e-003	2.743945e-002	-2.274782e-001
2.944051628407421e-003	2.894958e-002	-1.715218e-001
2.963582878407421e-003	3.002487e-002	-1.129856e-001
2.983114128407421e-003	3.064905e-002	-5.274996e-002
3.002645378407421e-003	3.081262e-002	8.279068e-003
3.022176628407421e-003	3.051306e-002	6.918357e-002
3.041707878407421e-003	2.975481e-002	1.290475e-001
3.061239128407421e-003	2.854924e-002	1.869704e-001
3.080770378407421e-003	2.691446e-002	2.420811e-001
3.100301628407421e-003	2.487506e-002	2.935507e-001
3.119832878407421e-003	2.246175e-002	3.406051e-001
3.139364128407421e-003	1.971085e-002	3.825364e-001
3.158895378407421e-003	1.666379e-002	4.187139e-001
3.178426628407421e-003	1.336647e-002	4.485937e-001
3.197957878407421e-003	9.868560e-003	4.717262e-001
3.217489128407421e-003	6.222742e-003	4.877635e-001
3.237020378407422e-003	2.483930e-003	4.964643e-001
3.256551628407422e-003	-1.291757e-003	4.977378e-001
3.275666975425137e-003	-4.967798e-003	4.916960e-001
3.295198225425137e-003	-8.648337e-003	4.781679e-001
3.314729475425137e-003	-1.219826e-002	4.574874e-001
3.334260725425137e-003	-1.556382e-002	4.299259e-001
3.353791975425137e-003	-1.869440e-002	3.958979e-001
3.373323225425137e-003	-2.154293e-002	3.559152e-001
3.392854475425137e-003	-2.406659e-002	3.105792e-001
3.412385725425137e-003	-2.622748e-002	2.605718e-001
3.431916975425137e-003	-2.799315e-002	2.066452e-001
3.451448225425137e-003	-2.933714e-002	1.496104e-001
3.470979475425137e-003	-3.023933e-002	9.032537e-002
3.490510725425137e-003	-3.068626e-002	2.968175e-002
3.510041975425137e-003	-3.067129e-002	-3.140832e-002
3.529573225425137e-003	-3.019477e-002	-9.202597e-002
3.549104475425137e-003	-2.926395e-002	-1.512595e-001
3.568635725425137e-003	-2.789289e-002	-2.082179e-001
3.588166975425137e-003	-2.610227e-002	-2.620445e-001
3.607698225425137e-003	-2.391904e-002	-3.119297e-001
3.627229475425137e-003	-2.137602e-002	-3.571233e-001
3.646760725425137e-003	-1.851143e-002	-3.969453e-001
3.666291975425137e-003	-1.536827e-002	-4.307969e-001
3.685823225425137e-003	-1.199372e-002	-4.581690e-001
3.705354475425137e-003	-8.438437e-003	-4.786497e-001
3.724885725425137e-003	-4.755770e-003	-4.919311e-001
3.744416975425137e-003	-1.000924e-003	-4.979120e-001
3.762924173823278e-003	2.572698e-003	-4.965769e-001
3.782455423823278e-003	6.305573e-003	-4.877986e-001
3.801986673823278e-003	9.944702e-003	-4.717819e-001
3.821517923823278e-003	1.343516e-002	-4.486691e-001
3.841049173823278e-003	1.672441e-002	-4.188079e-001
3.860580423823278e-003	1.976295e-002	-3.826475e-001
3.880111673823278e-003	2.250503e-002	-3.407317e-001
3.899642923823278e-003	2.490932e-002	-2.936909e-001
3.919174173823278e-003	2.693956e-002	-2.422328e-001
3.938705423823278e-003	2.856512e-002	-1.871313e-001
3.958236673823277e-003	2.976145e-002	-1.292151e-001
3.977767923823277e-003	3.051044e-002	-6.935543e-002
3.997299173823276e-003	3.080074e-002	-8.452584e-003
4.016830423823276e-003	3.062790e-002	5.257739e-002
4.036361673823275e-003	2.999446e-002	1.128166e-001
4.055892923823275e-003	2.890991e-002	1.713589e-001
4.075424173823275e-003	2.739053e-002	2.273238e-001
4.094955423823274e-003	2.545919e-002	2.798695e-001
4.114486673823274e-003	2.314493e-002	3.282057e-001
4.134017923823273e-003	2.048261e-002	3.716055e-001
4.153549173823273e-003	1.751233e-002	4.094159e-001
4.173080423823273e-003	1.427881e-002	4.410684e-001
4.192611673823272e-003	1.083077e-002	4.660867e-001
4.212142923823272e-003	7.220150e-003	4.840947e-001
4.231674173823271e-003	3.502698e-003	4.951834e-001
4.247431556707671e-003	4.601510e-004	4.986443e-001
4.264045287175839e-003	-2.751367e-003	4.964618e-001
4.283576537175838e-003	-6.482328e-003	4.870760e-001
4.303107787175838e-003	-1.011652e-002	4.706443e-001
4.322639037175838e-003	-1.359798e-002	4.471338e-001
4.342170287175837e-003	-1.687421e-002	4.168979e-001
4.361701537175837e-003	-1.989593e-002	3.803915e-001
4.381232787175836e-003	-2.261771e-002	3.381637e-001
4.400764037175836e-003	-2.499864e-002	2.908496e-001
4.420295287175836e-003	-2.700297e-002	2.391608e-001
4.439826537175835e-003	-2.860063e-002	1.838748e-001
4.459357787175835e-003	-2.976767e-002	1.258232e-001
4.478889037175834e-003	-3.048664e-002	6.587908e-002
4.498420287175834e-003	-3.074683e-002	4.944071e-003
4.517951537175833e-003	-3.054442e-002	-5.606530e-002
4.537482787175833e-003	-2.988257e-002	-1.162314e-001
4.557014037175833e-003	-2.877130e-002	-1.746493e-001
4.576545287175832e-003	-2.722739e-002	-2.304402e-001
4.596076537175832e-003	-2.527409e-002	-2.827652e-001
4.615607787175831e-003	-2.294079e-002	-3.308371e-001
4.635139037175831e-003	-2.026257e-002	-3.739329e-001
4.654670287175831e-003	-1.727963e-002	-4.114044e-001
4.674201537175830e-003	-1.403678e-002	-4.426880e-001
4.693732787175830e-003	-1.058267e-002	-4.673131e-001
4.713264037175829e-003	-6.969154e-003	-4.849094e-001
4.732795287175829e-003	-3.251443e-003	-4.955069e-001
4.749257041534662e-003	-7.479995e-005	-4.987392e-001
4.764723854410551e-003	2.911231e-003	-4.963802e-001
4.784255104410551e-003	6.636241e-003	-4.866268e-001
4.803786354410550e-003	1.026394e-002	-4.699444e-001
4.823317604410550e-003	1.373810e-002	-4.461937e-001
4.842848854410550e-003	1.700635e-002	-4.157318e-001
4.862380104410549e-003	2.001951e-002	-3.790169e-001
4.881911354410549e-003	2.273219e-002	-3.366013e-001
4.901442604410548e-003	2.510352e-002	-2.891228e-001
4.920973854410548e-003	2.709774e-002	-2.372957e-001
4.940505104410548e-003	2.868475e-002	-1.818994e-001
4.960036354410547e-003	2.984058e-002	-1.237672e-001
4.979567604410547e-003	3.054775e-002	-6.377338e-002
4.999098854410546e-003	3.079552e-002	-2.820372e-003
5.018630104410546e-003	3.058009e-002	5.817505e-002
5.038161354410545e-003	2.990465e-002	1.182955e-001
5.057692604410545e-003	2.877931e-002	1.766366e-001
5.077223854410545e-003	2.722098e-002	2.323210e-001
5.096755104410544e-003	2.525311e-002	2.845110e-001
5.116286354410544e-003	2.290530e-002	3.324217e-001
5.135817604410543e-003	2.021291e-002	3.753325e-001
5.155348854410543e-003	1.721649e-002	4.125980e-001
5.174880104410543e-003	1.396118e-002	4.436576e-001
5.194411354410542e-003	1.049600e-002	4.680442e-001
5.213942604410542e-003	6.873163e-003	4.853909e-001
5.233473854410541e-003	3.147998e-003	4.956907e-001
5.250361905007092e-003	-1.154351e-004	4.987307e-001
5.265589296433446e-003	-3.057152e-003	4.961455e-001
5.285120546433445e-003	-6.781697e-003	4.860411e-001
5.304651796433445e-003	-1.040575e-002	4.690395e-001
5.324183046433445e-003	-1.387279e-002	4.449830e-001
5.343714296433444e-003	-1.713059e-002	4.142336e-001
5.363245546433444e-003	-2.013014e-002	3.772538e-001
5.382776796433443e-003	-2.282634e-002	3.345996e-001
5.402308046433443e-003	-2.517868e-002	2.869129e-001
5.421839296433442e-003	-2.715182e-002	2.349106e-001
5.441370546433442e-003	-2.871616e-002	1.793751e-001
5.460901796433442e-003	-2.984827e-002	1.211416e-001
5.480433046433441e-003	-3.053122e-002	6.108609e-002
5.499964296433441e-003	-3.075482e-002	1.117445e-004
5.519495546433440e-003	-3.051583e-002	-6.086428e-002
5.539026796433440e-003	-2.981794e-002	-1.209249e-001
5.558558046433440e-003	-2.867171e-002	-1.791666e-001
5.578089296433439e-003	-2.709444e-002	-2.347135e-001
5.597620546433439e-003	-2.510989e-002	-2.867301e-001
5.617151796433438e-003	-2.274792e-002	-3.344341e-001
5.636683046433438e-003	-2.004401e-002	-3.771078e-001
5.656214296433437e-003	-1.703878e-002	-4.141095e-001
5.675745546433437e-003	-1.377735e-002	-4.448825e-001
5.695276796433437e-003	-1.030866e-002	-4.689642e-001
5.714808046433436e-003	-6.684764e-003	-4.859921e-001
5.734339296433436e-003	-2.960602e-003	-4.959120e-001
5.751770992768143e-003	4.049343e-004	-4.985843e-001
5.767883717378743e-003	3.512147e-003	-4.953065e-001
5.787414967378743e-003	7.225003e-003	-4.844188e-001
5.806946217378742e-003	1.083163e-002	-4.665731e-001
5.826477467378742e-003	1.427600e-002	-4.417096e-001
5.846008717378741e-003	1.750628e-002	-4.102025e-001
5.865539967378741e-003	2.047384e-002	-3.725255e-001
5.885071217378740e-003	2.313399e-002	-3.292454e-001
5.904602467378740e-003	2.544664e-002	-2.810131e-001
5.924133717378740e-003	2.737691e-002	-2.285541e-001
5.943664967378739e-003	2.889567e-002	-1.726574e-001
5.963196217378739e-003	2.997997e-002	-1.141639e-001
5.982727467378738e-003	3.061341e-002	-5.395316e-002
6.002258717378738e-003	3.078636e-002	7.069050e-003
6.021789967378738e-003	3.049615e-002	6.798494e-002
6.041321217378737e-003	2.974709e-002	1.278783e-001
6.060852467378737e-003	2.855043e-002	1.858482e-001
6.080383717378736e-003	2.692413e-002	2.410228e-001
6.099914967378736e-003	2.489266e-002	2.925722e-001
6.119446217378735e-003	2.248660e-002	3.397210e-001
6.138977467378735e-003	1.974219e-002	3.817601e-001
6.158508717378735e-003	1.670076e-002	4.180572e-001
6.178039967378734e-003	1.340811e-002	4.480663e-001
6.197571217378734e-003	9.913854e-003	4.713361e-001
6.217102467378733e-003	6.270623e-003	4.875165e-001
6.236633717378733e-003	2.533294e-003	4.963643e-001
6.256164967378733e-003	-1.242136e-003	4.978094e-001
6.275037562015907e-003	-4.872608e-003	4.920318e-001
6.294568812015906e-003	-8.556113e-003	4.787161e-001
6.314100062015906e-003	-1.211092e-002	4.582631e-001
6.333631312015906e-003	-1.548305e-002	4.309174e-001
6.353162562015905e-003	-1.862178e-002	3.970903e-001
6.372693812015905e-003	-2.147991e-002	3.572906e-001
6.392225062015904e-003	-2.401447e-002	3.121169e-001
6.411756312015904e-003	-2.618740e-002	2.622487e-001
6.431287562015903e-003	-2.796608e-002	2.084360e-001
6.450818812015903e-003	-2.932382e-002	1.514882e-001
6.470350062015903e-003	-3.024031e-002	9.226193e-002
6.489881312015902e-003	-3.070185e-002	3.164793e-002
6.509412562015902e-003	-3.070162e-002	-2.944207e-002
6.528943812015901e-003	-3.023970e-002	-9.008924e-002
6.548475062015901e-003	-2.932315e-002	-1.493814e-001
6.568006312015901e-003	-2.796579e-002	-2.064267e-001
6.587537562015900e-003	-2.618811e-002	-2.603672e-001
6.607068812015900e-003	-2.401686e-002	-3.103914e-001
6.626600062015899e-003	-2.148467e-002	-3.557472e-001
6.646131312015899e-003	-1.862959e-002	-3.957521e-001
6.665662562015898e-003	-1.549449e-002	-4.298046e-001
6.685193812015898e-003	-1.212644e-002	-4.573924e-001
6.704725062015898e-003	-8.575964e-003	-4.781006e-001
6.724256312015897e-003	-4.896355e-003	-4.916177e-001
6.743787562015897e-003	-1.142803e-003	-4.978009e-001
6.762689960767490e-003	2.507339e-003	-4.965978e-001
6.782221210767490e-003	6.241310e-003	-4.879465e-001
6.801752460767490e-003	9.882087e-003	-4.720166e-001
6.821283710767489e-003	1.337482e-002	-4.489870e-001
6.840814960767489e-003	1.666695e-002	-4.192043e-001
6.860346210767488e-003	1.970895e-002	-3.831164e-001
6.879877460767488e-003	2.245499e-002	-3.412660e-001
6.899408710767488e-003	2.486371e-002	-2.942827e-001
6.918939960767487e-003	2.689879e-002	-2.428731e-001
6.938471210767487e-003	2.852951e-002	-1.878104e-001
6.958002460767486e-003	2.973125e-002	-1.299229e-001
6.977533710767486e-003	3.048583e-002	-7.008125e-002
6.997064960767485e-003	3.078181e-002	-9.185506e-003
7.016596210767485e-003	3.061466e-002	5.184840e-002
7.036127460767485e-003	2.998684e-002	1.121024e-001
7.055658710767484e-003	2.890774e-002	1.706704e-001
7.075189960767484e-003	2.739359e-002	2.266713e-001
7.094721210767483e-003	2.546715e-002	2.792628e-001
